
T030C 000:352 SEGGER J-Link V4.92 Log File (0001ms, 0265ms total)
T030C 000:352 DLL Compiled: Sep 30 2014 09:33:42 (0001ms, 0265ms total)
T030C 000:352 Logging started @ 2020-04-25 17:07 (0001ms, 0265ms total)
T030C 000:353 JLINK_SetWarnOutHandler(...) (0000ms, 0265ms total)
T030C 000:353 JLINK_OpenEx(...)
Firmware: J-Link ARM-OB STM32 compiled Aug 22 2012 19:52:04
Hardware: V7.00
S/N: 20090937
Feature(s): RDI,FlashDL,FlashBP,JFlash,GDBFull  returns O.K. (0263ms, 0528ms total)
T030C 000:616 JLINK_SetErrorOutHandler(...) (0000ms, 0528ms total)
T030C 000:616 JLINK_ExecCommand("ProjectFile = "F:\my project\AirClearDev\backup\rev1.1\UVAirCleanDev\USER\JLinkSettings.ini"", ...)  returns 0x00 (0001ms, 0529ms total)
T030C 000:621 JLINK_ExecCommand("Device = STM32F103C8", ...)Device "STM32F103C8" selected (64 KB flash, 20 KB RAM).  returns 0x00 (0005ms, 0535ms total)
T030C 000:627 JLINK_ExecCommand("DisableConnectionTimeout", ...)  returns 0x01 (0000ms, 0535ms total)
T030C 000:627 JLINK_GetHardwareVersion()  returns 0x11170 (0000ms, 0535ms total)
T030C 000:627 JLINK_GetDLLVersion()  returns 49200 (0000ms, 0535ms total)
T030C 000:627 JLINK_GetFirmwareString(...) (0000ms, 0535ms total)
T030C 000:663 JLINK_GetDLLVersion()  returns 49200 (0001ms, 0536ms total)
T030C 000:664 JLINK_GetCompileDateTime() (0000ms, 0536ms total)
T030C 000:669 JLINK_GetFirmwareString(...) (0000ms, 0536ms total)
T030C 000:675 JLINK_GetHardwareVersion()  returns 0x11170 (0001ms, 0537ms total)
T030C 000:691 JLINK_TIF_Select(JLINKARM_TIF_SWD)  returns 0x00 (0001ms, 0538ms total)
T030C 000:692 JLINK_SetSpeed(5000) (0000ms, 0538ms total)
T030C 000:692 JLINK_GetId() >0x108 TIF>Found SWD-DP with ID 0x1BA01477 >0x0D TIF> >0x28 TIF> >0x0D TIF> >0x28 TIF> >0x0D TIF> >0x21 TIF> >0x0D TIF> >0x28 TIF> >0x0D TIF> >0x28 TIF> >0x0D TIF> >0x28 TIF> >0x0D TIF> >0x21 TIF> >0x0D TIF> >0x21 TIF> >0x0D TIF> >0x28 TIF> >0x0D TIF> >0x21 TIF> >0x0D TIF> >0x21 TIF> >0x0D TIF> >0x28 TIF> >0x0D TIF> >0x28 TIF> >0x108 TIF>Found SWD-DP with ID 0x1BA01477 >0x0D TIF> >0x21 TIF> >0x0D TIF> >0x28 TIF> >0x0D TIF> >0x28 TIF> >0x0D TIF> >0x21 TIF> >0x0D TIF> >0x28 TIF>
 >0x0D TIF> >0x21 TIF> >0x0D TIF> >0x21 TIF> >0x0D TIF> >0x21 TIF> >0x0D TIF> >0x21 TIF> >0x0D TIF> >0x28 TIF> >0x0D TIF> >0x28 TIF> >0x0D TIF> >0x21 TIF> >0x0D TIF> >0x28 TIF> >0x0D TIF> >0x28 TIF> >0x0D TIF> >0x28 TIF> >0x0D TIF> >0x21 TIF> >0x0D TIF> >0x21 TIF> >0x0D TIF> >0x28 TIF> >0x0D TIF> >0x21 TIF> >0x0D TIF> >0x21 TIF>Found Cortex-M3 r1p1, Little endian. -- CPU_WriteMem(4 bytes @ 0xE0002000) -- CPU_ReadMem(4 bytes @ 0xE000EDF0) -- CPU_WriteMem(4 bytes @ 0xE000EDF0)
 -- CPU_ReadMem(4 bytes @ 0xE0002000)FPUnit: 6 code (BP) slots and 2 literal slots -- CPU_ReadMem(4 bytes @ 0xE000EDFC) -- CPU_WriteMem(4 bytes @ 0xE000EDFC) -- CPU_ReadMem(4 bytes @ 0xE0001000) -- CPU_WriteMem(4 bytes @ 0xE0001000) -- CPU_ReadMem(4 bytes @ 0xE000ED88) -- CPU_WriteMem(4 bytes @ 0xE000ED88) -- CPU_ReadMem(4 bytes @ 0xE000ED88) -- CPU_WriteMem(4 bytes @ 0xE000ED88) -- CPU_ReadMem(4 bytes @ 0xE00FF010)TPIU fitted. -- CPU_ReadMem(4 bytes @ 0xE00FF014) -- CPU_ReadMem(4 bytes @ 0xE00FF018)
 >0x0D TIF> >0x21 TIF>  returns 0x1BA01477 (0047ms, 0585ms total)
T030C 000:739 JLINK_GetDLLVersion()  returns 49200 (0000ms, 0585ms total)
T030C 000:739 JLINK_CORE_GetFound()  returns 0x30000FF (0000ms, 0585ms total)
T030C 000:743 JLINK_GetDebugInfo(0x100) -- Value=0xE00FF003  returns 0x00 (0000ms, 0585ms total)
T030C 000:743 JLINK_GetDebugInfo(0x101)  returns 0xFFFFFFFF (0000ms, 0585ms total)
T030C 000:743 JLINK_ReadMem (0xE0041FF0, 0x0010 Bytes, ...) -- CPU is running -- CPU_ReadMem(16 bytes @ 0xE0041FF0) - Data: 00 00 00 00 00 00 00 00 00 00 00 00 00 00 00 00  returns 0x00 (0001ms, 0586ms total)
T030C 000:744 JLINK_GetDebugInfo(0x102)  returns 0xFFFFFFFF (0000ms, 0586ms total)
T030C 000:744 JLINK_GetDebugInfo(0x103)  returns 0xFFFFFFFF (0000ms, 0586ms total)
T030C 000:744 JLINK_ReadMem (0xE0040FF0, 0x0010 Bytes, ...) -- CPU is running -- CPU_ReadMem(16 bytes @ 0xE0040FF0) - Data: 0D 00 00 00 90 00 00 00 05 00 00 00 B1 00 00 00  returns 0x00 (0001ms, 0587ms total)
T030C 000:745 JLINK_GetDebugInfo(0x104)  returns 0xFFFFFFFF (0000ms, 0587ms total)
T030C 000:745 JLINK_GetDebugInfo(0x105)  returns 0xFFFFFFFF (0000ms, 0587ms total)
T030C 000:745 JLINK_GetDebugInfo(0x106)  returns 0xFFFFFFFF (0000ms, 0587ms total)
T030C 000:745 JLINK_GetDebugInfo(0x107)  returns 0xFFFFFFFF (0000ms, 0587ms total)
T030C 000:745 JLINK_GetDebugInfo(0x10C)  returns 0xFFFFFFFF (0000ms, 0587ms total)
T030C 000:745 JLINK_ReadMemU32(0xE000ED00, 0x0001 Items, ...) -- CPU is running -- CPU_ReadMem(4 bytes @ 0xE000ED00) - Data: 31 C2 1F 41  returns 0x01 (0001ms, 0588ms total)
T030C 000:746 JLINK_SetResetType(JLINKARM_RESET_TYPE_NORMAL)  returns JLINKARM_RESET_TYPE_NORMAL (0000ms, 0588ms total)
T030C 000:746 JLINK_Reset() -- CPU is running -- CPU_WriteMem(4 bytes @ 0xE000EDF0) -- CPU is running -- CPU_WriteMem(4 bytes @ 0xE000EDFC) >0x35 TIF> -- CPU is running -- CPU_WriteMem(4 bytes @ 0xE000ED0C) -- CPU is running -- CPU_ReadMem(4 bytes @ 0xE000EDF0) -- CPU is running -- CPU_ReadMem(4 bytes @ 0xE000EDF0) -- CPU is running -- CPU_ReadMem(4 bytes @ 0xE000EDF0) -- CPU is running -- CPU_ReadMem(4 bytes @ 0xE000EDF0) -- CPU is running -- CPU_ReadMem(4 bytes @ 0xE000EDF0) -- CPU is running
 -- CPU_ReadMem(4 bytes @ 0xE000EDF0) -- CPU is running -- CPU_ReadMem(4 bytes @ 0xE000EDF0) -- CPU is running -- CPU_ReadMem(4 bytes @ 0xE000EDF0) -- CPU is running -- CPU_ReadMem(4 bytes @ 0xE000EDF0) -- CPU is running -- CPU_ReadMem(4 bytes @ 0xE000EDF0) -- CPU is running -- CPU_ReadMem(4 bytes @ 0xE000EDF0) -- CPU is running -- CPU_ReadMem(4 bytes @ 0xE000EDF0) -- CPU is running -- CPU_ReadMem(4 bytes @ 0xE000EDF0) -- CPU is running -- CPU_ReadMem(4 bytes @ 0xE000EDF0) -- CPU is running
 -- CPU_ReadMem(4 bytes @ 0xE000EDF0) -- CPU is running -- CPU_ReadMem(4 bytes @ 0xE000EDF0) -- CPU is running -- CPU_ReadMem(4 bytes @ 0xE000EDF0) -- CPU is running -- CPU_ReadMem(4 bytes @ 0xE000EDF0) -- CPU is running -- CPU_ReadMem(4 bytes @ 0xE000EDF0) -- CPU is running -- CPU_WriteMem(4 bytes @ 0xE000EDF0) -- CPU is running -- CPU_WriteMem(4 bytes @ 0xE000EDFC) -- CPU is running -- CPU_ReadMem(4 bytes @ 0xE000EDF0) -- CPU_WriteMem(4 bytes @ 0xE0002000) -- CPU_ReadMem(4 bytes @ 0xE000EDFC)
 -- CPU_ReadMem(4 bytes @ 0xE0001000) (0029ms, 0617ms total)
T030C 000:775 JLINK_Halt()  returns 0x00 (0000ms, 0617ms total)
T030C 000:775 JLINK_IsHalted()  returns TRUE (0000ms, 0617ms total)
T030C 000:775 JLINK_ReadMemU32(0xE000EDF0, 0x0001 Items, ...) -- CPU_ReadMem(4 bytes @ 0xE000EDF0) - Data: 03 00 03 00  returns 0x01 (0000ms, 0617ms total)
T030C 000:775 JLINK_WriteU32(0xE000EDF0, 0xA05F0003) -- CPU_WriteMem(4 bytes @ 0xE000EDF0)  returns 0x00 (0000ms, 0617ms total)
T030C 000:775 JLINK_WriteU32(0xE000EDFC, 0x01000000) -- CPU_WriteMem(4 bytes @ 0xE000EDFC)  returns 0x00 (0001ms, 0618ms total)
T030C 000:791 JLINK_GetHWStatus(...)  returns 0x00 (0001ms, 0619ms total)
T030C 000:803 JLINK_GetNumBPUnits(Type = 0xFFFFFF00)  returns 0x06 (0000ms, 0619ms total)
T030C 000:803 JLINK_GetNumBPUnits(Type = 0xF0)  returns 0x2000 (0000ms, 0619ms total)
T030C 000:803 JLINK_GetNumWPUnits()  returns 0x04 (0000ms, 0619ms total)
T030C 000:815 JLINK_GetSpeed()  returns 0xFA0 (0000ms, 0619ms total)
T030C 000:823 JLINK_ReadMemU32(0xE000E004, 0x0001 Items, ...) -- CPU_ReadMem(4 bytes @ 0xE000E004) - Data: 01 00 00 00  returns 0x01 (0000ms, 0619ms total)
T030C 000:823 JLINK_ReadMemU32(0xE000E004, 0x0001 Items, ...) -- CPU_ReadMem(4 bytes @ 0xE000E004) - Data: 01 00 00 00  returns 0x01 (0001ms, 0620ms total)
T030C 000:824 JLINK_WriteMem(0xE0001000, 0x001C Bytes, ...) - Data: 01 00 00 00 00 00 00 00 00 00 00 00 00 00 00 00 ... -- CPU_WriteMem(28 bytes @ 0xE0001000)  returns 0x1C (0001ms, 0621ms total)
T030C 000:825 JLINK_ReadMem (0xE0001000, 0x001C Bytes, ...) -- CPU_ReadMem(28 bytes @ 0xE0001000) - Data: 01 00 00 40 00 00 00 00 00 00 00 00 00 00 00 00 ...  returns 0x00 (0001ms, 0622ms total)
T030C 000:826 JLINK_Halt()  returns 0x00 (0000ms, 0622ms total)
T030C 000:826 JLINK_IsHalted()  returns TRUE (0000ms, 0622ms total)
T030C 000:831 JLINK_WriteMem(0x20000000, 0x0164 Bytes, ...) - Data: 00 BE 0A E0 0D 78 2D 06 68 40 08 24 40 00 00 D3 ... -- CPU_WriteMem(356 bytes @ 0x20000000)  returns 0x164 (0005ms, 0627ms total)
T030C 000:836 JLINK_WriteReg(R0, 0x08000000)  returns 0x00 (0000ms, 0627ms total)
T030C 000:836 JLINK_WriteReg(R1, 0x044AA200)  returns 0x00 (0000ms, 0627ms total)
T030C 000:836 JLINK_WriteReg(R2, 0x00000001)  returns 0x00 (0000ms, 0627ms total)
T030C 000:836 JLINK_WriteReg(R3, 0x00000000)  returns 0x00 (0000ms, 0627ms total)
T030C 000:836 JLINK_WriteReg(R4, 0x00000000)  returns 0x00 (0000ms, 0627ms total)
T030C 000:836 JLINK_WriteReg(R5, 0x00000000)  returns 0x00 (0000ms, 0627ms total)
T030C 000:836 JLINK_WriteReg(R6, 0x00000000)  returns 0x00 (0000ms, 0627ms total)
T030C 000:836 JLINK_WriteReg(R7, 0x00000000)  returns 0x00 (0000ms, 0627ms total)
T030C 000:836 JLINK_WriteReg(R8, 0x00000000)  returns 0x00 (0001ms, 0628ms total)
T030C 000:837 JLINK_WriteReg(R9, 0x20000160)  returns 0x00 (0000ms, 0628ms total)
T030C 000:837 JLINK_WriteReg(R10, 0x00000000)  returns 0x00 (0000ms, 0628ms total)
T030C 000:837 JLINK_WriteReg(R11, 0x00000000)  returns 0x00 (0000ms, 0628ms total)
T030C 000:837 JLINK_WriteReg(R12, 0x00000000)  returns 0x00 (0000ms, 0628ms total)
T030C 000:837 JLINK_WriteReg(R13 (SP), 0x20001000)  returns 0x00 (0000ms, 0628ms total)
T030C 000:837 JLINK_WriteReg(R14, 0x20000001)  returns 0x00 (0000ms, 0628ms total)
T030C 000:837 JLINK_WriteReg(R15 (PC), 0x20000038)  returns 0x00 (0000ms, 0628ms total)
T030C 000:837 JLINK_WriteReg(XPSR, 0x01000000)  returns 0x00 (0000ms, 0628ms total)
T030C 000:837 JLINK_WriteReg(MSP, 0x20001000)  returns 0x00 (0000ms, 0628ms total)
T030C 000:837 JLINK_WriteReg(PSP, 0x20001000)  returns 0x00 (0000ms, 0628ms total)
T030C 000:837 JLINK_WriteReg(CFBP, 0x00000000)  returns 0x00 (0000ms, 0628ms total)
T030C 000:837 JLINK_SetBPEx(Addr = 0x20000000, Type = 0xFFFFFFF2) -- CPU_ReadMem(2 bytes @ 0x20000000)  returns 0x00000001 (0002ms, 0630ms total)
T030C 000:839 JLINK_Go() -- CPU_WriteMem(2 bytes @ 0x20000000) -- CPU_WriteMem(4 bytes @ 0xE0002008) -- CPU_WriteMem(4 bytes @ 0xE000200C) -- CPU_WriteMem(4 bytes @ 0xE0002010) -- CPU_WriteMem(4 bytes @ 0xE0002014) -- CPU_WriteMem(4 bytes @ 0xE0002018) -- CPU_WriteMem(4 bytes @ 0xE000201C) -- CPU_WriteMem(4 bytes @ 0xE0001004) (0006ms, 0636ms total)
T030C 000:845 JLINK_IsHalted() -- CPU_ReadMem(2 bytes @ 0x20000000)  returns TRUE (0003ms, 0639ms total)
T030C 000:848 JLINK_ReadReg(R15 (PC))  returns 0x20000000 (0000ms, 0636ms total)
T030C 000:848 JLINK_ClrBPEx(BPHandle = 0x00000001)  returns 0x00 (0000ms, 0636ms total)
T030C 000:848 JLINK_ReadReg(R0)  returns 0x00000000 (0000ms, 0636ms total)
T030C 000:849 JLINK_WriteReg(R0, 0x08000000)  returns 0x00 (0000ms, 0636ms total)
T030C 000:849 JLINK_WriteReg(R1, 0x044AA200)  returns 0x00 (0000ms, 0636ms total)
T030C 000:849 JLINK_WriteReg(R2, 0x00000001)  returns 0x00 (0000ms, 0636ms total)
T030C 000:849 JLINK_WriteReg(R3, 0x00000000)  returns 0x00 (0000ms, 0636ms total)
T030C 000:849 JLINK_WriteReg(R4, 0x00000000)  returns 0x00 (0000ms, 0636ms total)
T030C 000:849 JLINK_WriteReg(R5, 0x00000000)  returns 0x00 (0000ms, 0636ms total)
T030C 000:849 JLINK_WriteReg(R6, 0x00000000)  returns 0x00 (0000ms, 0636ms total)
T030C 000:849 JLINK_WriteReg(R7, 0x00000000)  returns 0x00 (0000ms, 0636ms total)
T030C 000:849 JLINK_WriteReg(R8, 0x00000000)  returns 0x00 (0000ms, 0636ms total)
T030C 000:849 JLINK_WriteReg(R9, 0x20000160)  returns 0x00 (0001ms, 0637ms total)
T030C 000:850 JLINK_WriteReg(R10, 0x00000000)  returns 0x00 (0000ms, 0637ms total)
T030C 000:850 JLINK_WriteReg(R11, 0x00000000)  returns 0x00 (0000ms, 0637ms total)
T030C 000:850 JLINK_WriteReg(R12, 0x00000000)  returns 0x00 (0000ms, 0637ms total)
T030C 000:850 JLINK_WriteReg(R13 (SP), 0x20001000)  returns 0x00 (0000ms, 0637ms total)
T030C 000:850 JLINK_WriteReg(R14, 0x20000001)  returns 0x00 (0000ms, 0637ms total)
T030C 000:850 JLINK_WriteReg(R15 (PC), 0x2000007C)  returns 0x00 (0000ms, 0637ms total)
T030C 000:850 JLINK_WriteReg(XPSR, 0x01000000)  returns 0x00 (0000ms, 0637ms total)
T030C 000:850 JLINK_WriteReg(MSP, 0x20001000)  returns 0x00 (0000ms, 0637ms total)
T030C 000:850 JLINK_WriteReg(PSP, 0x20001000)  returns 0x00 (0000ms, 0637ms total)
T030C 000:850 JLINK_WriteReg(CFBP, 0x00000000)  returns 0x00 (0000ms, 0637ms total)
T030C 000:850 JLINK_SetBPEx(Addr = 0x20000000, Type = 0xFFFFFFF2)  returns 0x00000002 (0000ms, 0637ms total)
T030C 000:850 JLINK_Go() (0002ms, 0639ms total)
T030C 000:852 JLINK_IsHalted()  returns FALSE (0001ms, 0640ms total)
T030C 000:959 JLINK_IsHalted() -- CPU_ReadMem(2 bytes @ 0x20000000)  returns TRUE (0003ms, 0642ms total)
T030C 000:962 JLINK_ReadReg(R15 (PC))  returns 0x20000000 (0000ms, 0639ms total)
T030C 000:962 JLINK_ClrBPEx(BPHandle = 0x00000002)  returns 0x00 (0000ms, 0639ms total)
T030C 000:962 JLINK_ReadReg(R0)  returns 0x00000000 (0000ms, 0639ms total)
T030C 001:015 JLINK_WriteReg(R0, 0x00000001)  returns 0x00 (0001ms, 0640ms total)
T030C 001:016 JLINK_WriteReg(R1, 0x044AA200)  returns 0x00 (0000ms, 0640ms total)
T030C 001:016 JLINK_WriteReg(R2, 0x00000001)  returns 0x00 (0000ms, 0640ms total)
T030C 001:016 JLINK_WriteReg(R3, 0x00000000)  returns 0x00 (0000ms, 0640ms total)
T030C 001:016 JLINK_WriteReg(R4, 0x00000000)  returns 0x00 (0000ms, 0640ms total)
T030C 001:016 JLINK_WriteReg(R5, 0x00000000)  returns 0x00 (0000ms, 0640ms total)
T030C 001:016 JLINK_WriteReg(R6, 0x00000000)  returns 0x00 (0000ms, 0640ms total)
T030C 001:016 JLINK_WriteReg(R7, 0x00000000)  returns 0x00 (0000ms, 0640ms total)
T030C 001:016 JLINK_WriteReg(R8, 0x00000000)  returns 0x00 (0000ms, 0640ms total)
T030C 001:016 JLINK_WriteReg(R9, 0x20000160)  returns 0x00 (0000ms, 0640ms total)
T030C 001:016 JLINK_WriteReg(R10, 0x00000000)  returns 0x00 (0000ms, 0640ms total)
T030C 001:016 JLINK_WriteReg(R11, 0x00000000)  returns 0x00 (0000ms, 0640ms total)
T030C 001:016 JLINK_WriteReg(R12, 0x00000000)  returns 0x00 (0000ms, 0640ms total)
T030C 001:016 JLINK_WriteReg(R13 (SP), 0x20001000)  returns 0x00 (0000ms, 0640ms total)
T030C 001:016 JLINK_WriteReg(R14, 0x20000001)  returns 0x00 (0001ms, 0641ms total)
T030C 001:017 JLINK_WriteReg(R15 (PC), 0x2000006A)  returns 0x00 (0000ms, 0641ms total)
T030C 001:017 JLINK_WriteReg(XPSR, 0x01000000)  returns 0x00 (0000ms, 0641ms total)
T030C 001:017 JLINK_WriteReg(MSP, 0x20001000)  returns 0x00 (0000ms, 0641ms total)
T030C 001:017 JLINK_WriteReg(PSP, 0x20001000)  returns 0x00 (0000ms, 0641ms total)
T030C 001:017 JLINK_WriteReg(CFBP, 0x00000000)  returns 0x00 (0000ms, 0641ms total)
T030C 001:017 JLINK_SetBPEx(Addr = 0x20000000, Type = 0xFFFFFFF2)  returns 0x00000003 (0000ms, 0641ms total)
T030C 001:017 JLINK_Go() (0002ms, 0643ms total)
T030C 001:019 JLINK_IsHalted() -- CPU_ReadMem(2 bytes @ 0x20000000)  returns TRUE (0004ms, 0647ms total)
T030C 001:023 JLINK_ReadReg(R15 (PC))  returns 0x20000000 (0000ms, 0643ms total)
T030C 001:023 JLINK_ClrBPEx(BPHandle = 0x00000003)  returns 0x00 (0000ms, 0643ms total)
T030C 001:023 JLINK_ReadReg(R0)  returns 0x00000000 (0000ms, 0643ms total)
T030C 001:031 JLINK_WriteMem(0x20000000, 0x0164 Bytes, ...) - Data: 00 BE 0A E0 0D 78 2D 06 68 40 08 24 40 00 00 D3 ... -- CPU_WriteMem(356 bytes @ 0x20000000)  returns 0x164 (0006ms, 0649ms total)
T030C 001:037 JLINK_WriteReg(R0, 0x08000000)  returns 0x00 (0000ms, 0649ms total)
T030C 001:037 JLINK_WriteReg(R1, 0x044AA200)  returns 0x00 (0000ms, 0649ms total)
T030C 001:037 JLINK_WriteReg(R2, 0x00000002)  returns 0x00 (0000ms, 0649ms total)
T030C 001:037 JLINK_WriteReg(R3, 0x00000000)  returns 0x00 (0000ms, 0649ms total)
T030C 001:037 JLINK_WriteReg(R4, 0x00000000)  returns 0x00 (0000ms, 0649ms total)
T030C 001:037 JLINK_WriteReg(R5, 0x00000000)  returns 0x00 (0000ms, 0649ms total)
T030C 001:037 JLINK_WriteReg(R6, 0x00000000)  returns 0x00 (0000ms, 0649ms total)
T030C 001:037 JLINK_WriteReg(R7, 0x00000000)  returns 0x00 (0000ms, 0649ms total)
T030C 001:037 JLINK_WriteReg(R8, 0x00000000)  returns 0x00 (0000ms, 0649ms total)
T030C 001:037 JLINK_WriteReg(R9, 0x20000160)  returns 0x00 (0000ms, 0649ms total)
T030C 001:037 JLINK_WriteReg(R10, 0x00000000)  returns 0x00 (0000ms, 0649ms total)
T030C 001:037 JLINK_WriteReg(R11, 0x00000000)  returns 0x00 (0000ms, 0649ms total)
T030C 001:037 JLINK_WriteReg(R12, 0x00000000)  returns 0x00 (0000ms, 0649ms total)
T030C 001:037 JLINK_WriteReg(R13 (SP), 0x20001000)  returns 0x00 (0000ms, 0649ms total)
T030C 001:037 JLINK_WriteReg(R14, 0x20000001)  returns 0x00 (0000ms, 0649ms total)
T030C 001:037 JLINK_WriteReg(R15 (PC), 0x20000038)  returns 0x00 (0001ms, 0650ms total)
T030C 001:038 JLINK_WriteReg(XPSR, 0x01000000)  returns 0x00 (0000ms, 0650ms total)
T030C 001:038 JLINK_WriteReg(MSP, 0x20001000)  returns 0x00 (0000ms, 0650ms total)
T030C 001:038 JLINK_WriteReg(PSP, 0x20001000)  returns 0x00 (0000ms, 0650ms total)
T030C 001:038 JLINK_WriteReg(CFBP, 0x00000000)  returns 0x00 (0000ms, 0650ms total)
T030C 001:038 JLINK_SetBPEx(Addr = 0x20000000, Type = 0xFFFFFFF2) -- CPU_ReadMem(2 bytes @ 0x20000000)  returns 0x00000004 (0001ms, 0651ms total)
T030C 001:039 JLINK_Go() -- CPU_WriteMem(2 bytes @ 0x20000000) (0002ms, 0653ms total)
T030C 001:041 JLINK_IsHalted() -- CPU_ReadMem(2 bytes @ 0x20000000)  returns TRUE (0004ms, 0657ms total)
T030C 001:045 JLINK_ReadReg(R15 (PC))  returns 0x20000000 (0000ms, 0653ms total)
T030C 001:045 JLINK_ClrBPEx(BPHandle = 0x00000004)  returns 0x00 (0000ms, 0653ms total)
T030C 001:045 JLINK_ReadReg(R0)  returns 0x00000000 (0000ms, 0653ms total)
T030C 001:045 JLINK_WriteMem(0x20000164, 0x0400 Bytes, ...) - Data: 00 04 00 20 23 03 00 08 31 03 00 08 33 03 00 08 ... -- CPU_WriteMem(1024 bytes @ 0x20000164)  returns 0x400 (0014ms, 0667ms total)
T030C 001:059 JLINK_WriteReg(R0, 0x08000000)  returns 0x00 (0000ms, 0667ms total)
T030C 001:059 JLINK_WriteReg(R1, 0x00000400)  returns 0x00 (0000ms, 0667ms total)
T030C 001:059 JLINK_WriteReg(R2, 0x20000164)  returns 0x00 (0000ms, 0667ms total)
T030C 001:059 JLINK_WriteReg(R3, 0x00000000)  returns 0x00 (0000ms, 0667ms total)
T030C 001:059 JLINK_WriteReg(R4, 0x00000000)  returns 0x00 (0000ms, 0667ms total)
T030C 001:059 JLINK_WriteReg(R5, 0x00000000)  returns 0x00 (0000ms, 0667ms total)
T030C 001:059 JLINK_WriteReg(R6, 0x00000000)  returns 0x00 (0000ms, 0667ms total)
T030C 001:059 JLINK_WriteReg(R7, 0x00000000)  returns 0x00 (0000ms, 0667ms total)
T030C 001:059 JLINK_WriteReg(R8, 0x00000000)  returns 0x00 (0000ms, 0667ms total)
T030C 001:059 JLINK_WriteReg(R9, 0x20000160)  returns 0x00 (0000ms, 0667ms total)
T030C 001:059 JLINK_WriteReg(R10, 0x00000000)  returns 0x00 (0000ms, 0667ms total)
T030C 001:059 JLINK_WriteReg(R11, 0x00000000)  returns 0x00 (0000ms, 0667ms total)
T030C 001:059 JLINK_WriteReg(R12, 0x00000000)  returns 0x00 (0000ms, 0667ms total)
T030C 001:059 JLINK_WriteReg(R13 (SP), 0x20001000)  returns 0x00 (0001ms, 0668ms total)
T030C 001:060 JLINK_WriteReg(R14, 0x20000001)  returns 0x00 (0000ms, 0668ms total)
T030C 001:060 JLINK_WriteReg(R15 (PC), 0x200000F4)  returns 0x00 (0000ms, 0668ms total)
T030C 001:060 JLINK_WriteReg(XPSR, 0x01000000)  returns 0x00 (0000ms, 0668ms total)
T030C 001:060 JLINK_WriteReg(MSP, 0x20001000)  returns 0x00 (0000ms, 0668ms total)
T030C 001:060 JLINK_WriteReg(PSP, 0x20001000)  returns 0x00 (0000ms, 0668ms total)
T030C 001:060 JLINK_WriteReg(CFBP, 0x00000000)  returns 0x00 (0000ms, 0668ms total)
T030C 001:060 JLINK_SetBPEx(Addr = 0x20000000, Type = 0xFFFFFFF2)  returns 0x00000005 (0000ms, 0668ms total)
T030C 001:060 JLINK_Go() (0002ms, 0670ms total)
T030C 001:062 JLINK_IsHalted()  returns FALSE (0001ms, 0671ms total)
T030C 001:094 JLINK_IsHalted() -- CPU_ReadMem(2 bytes @ 0x20000000)  returns TRUE (0004ms, 0674ms total)
T030C 001:098 JLINK_ReadReg(R15 (PC))  returns 0x20000000 (0000ms, 0670ms total)
T030C 001:098 JLINK_ClrBPEx(BPHandle = 0x00000005)  returns 0x00 (0000ms, 0670ms total)
T030C 001:098 JLINK_ReadReg(R0)  returns 0x00000000 (0000ms, 0670ms total)
T030C 001:099 JLINK_WriteMem(0x20000164, 0x0400 Bytes, ...) - Data: D7 48 40 78 38 70 7E 70 00 22 39 46 D6 48 00 68 ... -- CPU_WriteMem(1024 bytes @ 0x20000164)  returns 0x400 (0012ms, 0682ms total)
T030C 001:111 JLINK_WriteReg(R0, 0x08000400)  returns 0x00 (0000ms, 0682ms total)
T030C 001:111 JLINK_WriteReg(R1, 0x00000400)  returns 0x00 (0000ms, 0682ms total)
T030C 001:111 JLINK_WriteReg(R2, 0x20000164)  returns 0x00 (0000ms, 0682ms total)
T030C 001:111 JLINK_WriteReg(R3, 0x00000000)  returns 0x00 (0000ms, 0682ms total)
T030C 001:111 JLINK_WriteReg(R4, 0x00000000)  returns 0x00 (0000ms, 0682ms total)
T030C 001:111 JLINK_WriteReg(R5, 0x00000000)  returns 0x00 (0000ms, 0682ms total)
T030C 001:111 JLINK_WriteReg(R6, 0x00000000)  returns 0x00 (0000ms, 0682ms total)
T030C 001:111 JLINK_WriteReg(R7, 0x00000000)  returns 0x00 (0000ms, 0682ms total)
T030C 001:111 JLINK_WriteReg(R8, 0x00000000)  returns 0x00 (0000ms, 0682ms total)
T030C 001:111 JLINK_WriteReg(R9, 0x20000160)  returns 0x00 (0000ms, 0682ms total)
T030C 001:111 JLINK_WriteReg(R10, 0x00000000)  returns 0x00 (0000ms, 0682ms total)
T030C 001:112 JLINK_WriteReg(R11, 0x00000000)  returns 0x00 (0000ms, 0682ms total)
T030C 001:112 JLINK_WriteReg(R12, 0x00000000)  returns 0x00 (0000ms, 0682ms total)
T030C 001:112 JLINK_WriteReg(R13 (SP), 0x20001000)  returns 0x00 (0000ms, 0682ms total)
T030C 001:112 JLINK_WriteReg(R14, 0x20000001)  returns 0x00 (0000ms, 0682ms total)
T030C 001:112 JLINK_WriteReg(R15 (PC), 0x200000F4)  returns 0x00 (0000ms, 0682ms total)
T030C 001:112 JLINK_WriteReg(XPSR, 0x01000000)  returns 0x00 (0000ms, 0682ms total)
T030C 001:112 JLINK_WriteReg(MSP, 0x20001000)  returns 0x00 (0000ms, 0682ms total)
T030C 001:112 JLINK_WriteReg(PSP, 0x20001000)  returns 0x00 (0000ms, 0682ms total)
T030C 001:112 JLINK_WriteReg(CFBP, 0x00000000)  returns 0x00 (0000ms, 0682ms total)
T030C 001:112 JLINK_SetBPEx(Addr = 0x20000000, Type = 0xFFFFFFF2)  returns 0x00000006 (0000ms, 0682ms total)
T030C 001:112 JLINK_Go() (0003ms, 0685ms total)
T030C 001:115 JLINK_IsHalted()  returns FALSE (0001ms, 0686ms total)
T030C 001:121 JLINK_IsHalted()  returns FALSE (0000ms, 0685ms total)
T030C 001:133 JLINK_IsHalted()  returns FALSE (0000ms, 0685ms total)
T030C 001:135 JLINK_IsHalted()  returns FALSE (0000ms, 0685ms total)
T030C 001:137 JLINK_IsHalted()  returns FALSE (0000ms, 0685ms total)
T030C 001:139 JLINK_IsHalted()  returns FALSE (0000ms, 0685ms total)
T030C 001:141 JLINK_IsHalted()  returns FALSE (0000ms, 0685ms total)
T030C 001:143 JLINK_IsHalted()  returns FALSE (0000ms, 0685ms total)
T030C 001:145 JLINK_IsHalted()  returns FALSE (0000ms, 0685ms total)
T030C 001:147 JLINK_IsHalted() -- CPU_ReadMem(2 bytes @ 0x20000000)  returns TRUE (0003ms, 0688ms total)
T030C 001:150 JLINK_ReadReg(R15 (PC))  returns 0x20000000 (0000ms, 0685ms total)
T030C 001:150 JLINK_ClrBPEx(BPHandle = 0x00000006)  returns 0x00 (0000ms, 0685ms total)
T030C 001:150 JLINK_ReadReg(R0)  returns 0x00000000 (0001ms, 0686ms total)
T030C 001:151 JLINK_WriteMem(0x20000164, 0x0400 Bytes, ...) - Data: 00 71 DA 48 01 F0 99 FA 00 22 4F F4 00 51 D8 48 ... -- CPU_WriteMem(1024 bytes @ 0x20000164)  returns 0x400 (0013ms, 0699ms total)
T030C 001:164 JLINK_WriteReg(R0, 0x08000800)  returns 0x00 (0000ms, 0699ms total)
T030C 001:164 JLINK_WriteReg(R1, 0x00000400)  returns 0x00 (0000ms, 0699ms total)
T030C 001:164 JLINK_WriteReg(R2, 0x20000164)  returns 0x00 (0000ms, 0699ms total)
T030C 001:164 JLINK_WriteReg(R3, 0x00000000)  returns 0x00 (0000ms, 0699ms total)
T030C 001:164 JLINK_WriteReg(R4, 0x00000000)  returns 0x00 (0000ms, 0699ms total)
T030C 001:164 JLINK_WriteReg(R5, 0x00000000)  returns 0x00 (0000ms, 0699ms total)
T030C 001:164 JLINK_WriteReg(R6, 0x00000000)  returns 0x00 (0000ms, 0699ms total)
T030C 001:164 JLINK_WriteReg(R7, 0x00000000)  returns 0x00 (0000ms, 0699ms total)
T030C 001:164 JLINK_WriteReg(R8, 0x00000000)  returns 0x00 (0000ms, 0699ms total)
T030C 001:164 JLINK_WriteReg(R9, 0x20000160)  returns 0x00 (0000ms, 0699ms total)
T030C 001:164 JLINK_WriteReg(R10, 0x00000000)  returns 0x00 (0000ms, 0699ms total)
T030C 001:164 JLINK_WriteReg(R11, 0x00000000)  returns 0x00 (0000ms, 0699ms total)
T030C 001:164 JLINK_WriteReg(R12, 0x00000000)  returns 0x00 (0000ms, 0699ms total)
T030C 001:164 JLINK_WriteReg(R13 (SP), 0x20001000)  returns 0x00 (0000ms, 0699ms total)
T030C 001:164 JLINK_WriteReg(R14, 0x20000001)  returns 0x00 (0001ms, 0700ms total)
T030C 001:165 JLINK_WriteReg(R15 (PC), 0x200000F4)  returns 0x00 (0000ms, 0700ms total)
T030C 001:165 JLINK_WriteReg(XPSR, 0x01000000)  returns 0x00 (0000ms, 0700ms total)
T030C 001:165 JLINK_WriteReg(MSP, 0x20001000)  returns 0x00 (0000ms, 0700ms total)
T030C 001:165 JLINK_WriteReg(PSP, 0x20001000)  returns 0x00 (0000ms, 0700ms total)
T030C 001:165 JLINK_WriteReg(CFBP, 0x00000000)  returns 0x00 (0000ms, 0700ms total)
T030C 001:165 JLINK_SetBPEx(Addr = 0x20000000, Type = 0xFFFFFFF2)  returns 0x00000007 (0000ms, 0700ms total)
T030C 001:165 JLINK_Go() (0003ms, 0703ms total)
T030C 001:168 JLINK_IsHalted()  returns FALSE (0000ms, 0703ms total)
T030C 001:178 JLINK_IsHalted()  returns FALSE (0001ms, 0704ms total)
T030C 001:181 JLINK_IsHalted()  returns FALSE (0001ms, 0704ms total)
T030C 001:184 JLINK_IsHalted()  returns FALSE (0000ms, 0703ms total)
T030C 001:186 JLINK_IsHalted()  returns FALSE (0000ms, 0703ms total)
T030C 001:188 JLINK_IsHalted()  returns FALSE (0001ms, 0704ms total)
T030C 001:193 JLINK_IsHalted()  returns FALSE (0001ms, 0704ms total)
T030C 001:196 JLINK_IsHalted()  returns FALSE (0000ms, 0703ms total)
T030C 001:198 JLINK_IsHalted()  returns FALSE (0000ms, 0703ms total)
T030C 001:200 JLINK_IsHalted() -- CPU_ReadMem(2 bytes @ 0x20000000)  returns TRUE (0003ms, 0706ms total)
T030C 001:203 JLINK_ReadReg(R15 (PC))  returns 0x20000000 (0000ms, 0703ms total)
T030C 001:203 JLINK_ClrBPEx(BPHandle = 0x00000007)  returns 0x00 (0000ms, 0703ms total)
T030C 001:203 JLINK_ReadReg(R0)  returns 0x00000000 (0000ms, 0703ms total)
T030C 001:205 JLINK_WriteMem(0x20000164, 0x0400 Bytes, ...) - Data: 00 BF 4F F0 FF 31 ED 48 00 68 02 F0 E1 FE EC 4B ... -- CPU_WriteMem(1024 bytes @ 0x20000164)  returns 0x400 (0013ms, 0716ms total)
T030C 001:218 JLINK_WriteReg(R0, 0x08000C00)  returns 0x00 (0000ms, 0716ms total)
T030C 001:218 JLINK_WriteReg(R1, 0x00000400)  returns 0x00 (0000ms, 0716ms total)
T030C 001:218 JLINK_WriteReg(R2, 0x20000164)  returns 0x00 (0000ms, 0716ms total)
T030C 001:218 JLINK_WriteReg(R3, 0x00000000)  returns 0x00 (0000ms, 0716ms total)
T030C 001:218 JLINK_WriteReg(R4, 0x00000000)  returns 0x00 (0000ms, 0716ms total)
T030C 001:218 JLINK_WriteReg(R5, 0x00000000)  returns 0x00 (0000ms, 0716ms total)
T030C 001:218 JLINK_WriteReg(R6, 0x00000000)  returns 0x00 (0000ms, 0716ms total)
T030C 001:218 JLINK_WriteReg(R7, 0x00000000)  returns 0x00 (0000ms, 0716ms total)
T030C 001:218 JLINK_WriteReg(R8, 0x00000000)  returns 0x00 (0000ms, 0716ms total)
T030C 001:218 JLINK_WriteReg(R9, 0x20000160)  returns 0x00 (0000ms, 0716ms total)
T030C 001:218 JLINK_WriteReg(R10, 0x00000000)  returns 0x00 (0000ms, 0716ms total)
T030C 001:218 JLINK_WriteReg(R11, 0x00000000)  returns 0x00 (0000ms, 0716ms total)
T030C 001:218 JLINK_WriteReg(R12, 0x00000000)  returns 0x00 (0000ms, 0716ms total)
T030C 001:219 JLINK_WriteReg(R13 (SP), 0x20001000)  returns 0x00 (0000ms, 0717ms total)
T030C 001:219 JLINK_WriteReg(R14, 0x20000001)  returns 0x00 (0000ms, 0717ms total)
T030C 001:219 JLINK_WriteReg(R15 (PC), 0x200000F4)  returns 0x00 (0000ms, 0717ms total)
T030C 001:219 JLINK_WriteReg(XPSR, 0x01000000)  returns 0x00 (0000ms, 0717ms total)
T030C 001:219 JLINK_WriteReg(MSP, 0x20001000)  returns 0x00 (0000ms, 0717ms total)
T030C 001:219 JLINK_WriteReg(PSP, 0x20001000)  returns 0x00 (0000ms, 0717ms total)
T030C 001:219 JLINK_WriteReg(CFBP, 0x00000000)  returns 0x00 (0000ms, 0717ms total)
T030C 001:219 JLINK_SetBPEx(Addr = 0x20000000, Type = 0xFFFFFFF2)  returns 0x00000008 (0000ms, 0717ms total)
T030C 001:219 JLINK_Go() (0002ms, 0719ms total)
T030C 001:221 JLINK_IsHalted()  returns FALSE (0000ms, 0719ms total)
T030C 001:223 JLINK_IsHalted()  returns FALSE (0000ms, 0719ms total)
T030C 001:225 JLINK_IsHalted()  returns FALSE (0000ms, 0719ms total)
T030C 001:227 JLINK_IsHalted()  returns FALSE (0000ms, 0719ms total)
T030C 001:229 JLINK_IsHalted()  returns FALSE (0000ms, 0719ms total)
T030C 001:231 JLINK_IsHalted()  returns FALSE (0000ms, 0719ms total)
T030C 001:243 JLINK_IsHalted()  returns FALSE (0000ms, 0719ms total)
T030C 001:245 JLINK_IsHalted()  returns FALSE (0000ms, 0719ms total)
T030C 001:248 JLINK_IsHalted()  returns FALSE (0000ms, 0719ms total)
T030C 001:250 JLINK_IsHalted()  returns FALSE (0000ms, 0719ms total)
T030C 001:252 JLINK_IsHalted() -- CPU_ReadMem(2 bytes @ 0x20000000)  returns TRUE (0004ms, 0723ms total)
T030C 001:256 JLINK_ReadReg(R15 (PC))  returns 0x20000000 (0000ms, 0719ms total)
T030C 001:256 JLINK_ClrBPEx(BPHandle = 0x00000008)  returns 0x00 (0000ms, 0719ms total)
T030C 001:256 JLINK_ReadReg(R0)  returns 0x00000000 (0000ms, 0719ms total)
T030C 001:257 JLINK_WriteMem(0x20000164, 0x0400 Bytes, ...) - Data: 48 71 88 71 02 E0 00 25 00 E0 00 BF 00 BF 81 E0 ... -- CPU_WriteMem(1024 bytes @ 0x20000164)  returns 0x400 (0012ms, 0731ms total)
T030C 001:269 JLINK_WriteReg(R0, 0x08001000)  returns 0x00 (0000ms, 0731ms total)
T030C 001:269 JLINK_WriteReg(R1, 0x00000400)  returns 0x00 (0001ms, 0732ms total)
T030C 001:270 JLINK_WriteReg(R2, 0x20000164)  returns 0x00 (0000ms, 0732ms total)
T030C 001:270 JLINK_WriteReg(R3, 0x00000000)  returns 0x00 (0000ms, 0732ms total)
T030C 001:270 JLINK_WriteReg(R4, 0x00000000)  returns 0x00 (0000ms, 0732ms total)
T030C 001:270 JLINK_WriteReg(R5, 0x00000000)  returns 0x00 (0000ms, 0732ms total)
T030C 001:270 JLINK_WriteReg(R6, 0x00000000)  returns 0x00 (0000ms, 0732ms total)
T030C 001:270 JLINK_WriteReg(R7, 0x00000000)  returns 0x00 (0000ms, 0732ms total)
T030C 001:270 JLINK_WriteReg(R8, 0x00000000)  returns 0x00 (0000ms, 0732ms total)
T030C 001:270 JLINK_WriteReg(R9, 0x20000160)  returns 0x00 (0000ms, 0732ms total)
T030C 001:270 JLINK_WriteReg(R10, 0x00000000)  returns 0x00 (0000ms, 0732ms total)
T030C 001:270 JLINK_WriteReg(R11, 0x00000000)  returns 0x00 (0000ms, 0732ms total)
T030C 001:270 JLINK_WriteReg(R12, 0x00000000)  returns 0x00 (0000ms, 0732ms total)
T030C 001:270 JLINK_WriteReg(R13 (SP), 0x20001000)  returns 0x00 (0000ms, 0732ms total)
T030C 001:270 JLINK_WriteReg(R14, 0x20000001)  returns 0x00 (0000ms, 0732ms total)
T030C 001:270 JLINK_WriteReg(R15 (PC), 0x200000F4)  returns 0x00 (0000ms, 0732ms total)
T030C 001:271 JLINK_WriteReg(XPSR, 0x01000000)  returns 0x00 (0000ms, 0733ms total)
T030C 001:271 JLINK_WriteReg(MSP, 0x20001000)  returns 0x00 (0000ms, 0733ms total)
T030C 001:271 JLINK_WriteReg(PSP, 0x20001000)  returns 0x00 (0000ms, 0733ms total)
T030C 001:271 JLINK_WriteReg(CFBP, 0x00000000)  returns 0x00 (0000ms, 0733ms total)
T030C 001:271 JLINK_SetBPEx(Addr = 0x20000000, Type = 0xFFFFFFF2)  returns 0x00000009 (0000ms, 0733ms total)
T030C 001:271 JLINK_Go() (0002ms, 0735ms total)
T030C 001:273 JLINK_IsHalted()  returns FALSE (0000ms, 0735ms total)
T030C 001:283 JLINK_IsHalted()  returns FALSE (0000ms, 0735ms total)
T030C 001:285 JLINK_IsHalted()  returns FALSE (0001ms, 0736ms total)
T030C 001:288 JLINK_IsHalted()  returns FALSE (0000ms, 0735ms total)
T030C 001:290 JLINK_IsHalted()  returns FALSE (0000ms, 0735ms total)
T030C 001:292 JLINK_IsHalted()  returns FALSE (0000ms, 0735ms total)
T030C 001:294 JLINK_IsHalted()  returns FALSE (0001ms, 0736ms total)
T030C 001:299 JLINK_IsHalted()  returns FALSE (0000ms, 0735ms total)
T030C 001:301 JLINK_IsHalted()  returns FALSE (0000ms, 0735ms total)
T030C 001:303 JLINK_IsHalted() -- CPU_ReadMem(2 bytes @ 0x20000000)  returns TRUE (0004ms, 0739ms total)
T030C 001:307 JLINK_ReadReg(R15 (PC))  returns 0x20000000 (0000ms, 0735ms total)
T030C 001:307 JLINK_ClrBPEx(BPHandle = 0x00000009)  returns 0x00 (0000ms, 0735ms total)
T030C 001:307 JLINK_ReadReg(R0)  returns 0x00000000 (0000ms, 0735ms total)
T030C 001:308 JLINK_WriteMem(0x20000164, 0x0400 Bytes, ...) - Data: 0A 2D 00 D9 03 E0 0A 2C 00 D9 00 E0 DC E7 00 BF ... -- CPU_WriteMem(1024 bytes @ 0x20000164)  returns 0x400 (0012ms, 0747ms total)
T030C 001:320 JLINK_WriteReg(R0, 0x08001400)  returns 0x00 (0000ms, 0747ms total)
T030C 001:321 JLINK_WriteReg(R1, 0x00000400)  returns 0x00 (0000ms, 0748ms total)
T030C 001:321 JLINK_WriteReg(R2, 0x20000164)  returns 0x00 (0000ms, 0748ms total)
T030C 001:321 JLINK_WriteReg(R3, 0x00000000)  returns 0x00 (0000ms, 0748ms total)
T030C 001:321 JLINK_WriteReg(R4, 0x00000000)  returns 0x00 (0000ms, 0748ms total)
T030C 001:321 JLINK_WriteReg(R5, 0x00000000)  returns 0x00 (0000ms, 0748ms total)
T030C 001:321 JLINK_WriteReg(R6, 0x00000000)  returns 0x00 (0000ms, 0748ms total)
T030C 001:321 JLINK_WriteReg(R7, 0x00000000)  returns 0x00 (0000ms, 0748ms total)
T030C 001:321 JLINK_WriteReg(R8, 0x00000000)  returns 0x00 (0000ms, 0748ms total)
T030C 001:321 JLINK_WriteReg(R9, 0x20000160)  returns 0x00 (0000ms, 0748ms total)
T030C 001:321 JLINK_WriteReg(R10, 0x00000000)  returns 0x00 (0000ms, 0748ms total)
T030C 001:321 JLINK_WriteReg(R11, 0x00000000)  returns 0x00 (0000ms, 0748ms total)
T030C 001:321 JLINK_WriteReg(R12, 0x00000000)  returns 0x00 (0000ms, 0748ms total)
T030C 001:321 JLINK_WriteReg(R13 (SP), 0x20001000)  returns 0x00 (0000ms, 0748ms total)
T030C 001:321 JLINK_WriteReg(R14, 0x20000001)  returns 0x00 (0000ms, 0748ms total)
T030C 001:321 JLINK_WriteReg(R15 (PC), 0x200000F4)  returns 0x00 (0001ms, 0749ms total)
T030C 001:322 JLINK_WriteReg(XPSR, 0x01000000)  returns 0x00 (0000ms, 0749ms total)
T030C 001:322 JLINK_WriteReg(MSP, 0x20001000)  returns 0x00 (0000ms, 0749ms total)
T030C 001:322 JLINK_WriteReg(PSP, 0x20001000)  returns 0x00 (0000ms, 0749ms total)
T030C 001:322 JLINK_WriteReg(CFBP, 0x00000000)  returns 0x00 (0000ms, 0749ms total)
T030C 001:322 JLINK_SetBPEx(Addr = 0x20000000, Type = 0xFFFFFFF2)  returns 0x0000000A (0000ms, 0749ms total)
T030C 001:322 JLINK_Go() (0001ms, 0750ms total)
T030C 001:323 JLINK_IsHalted()  returns FALSE (0002ms, 0752ms total)
T030C 001:329 JLINK_IsHalted()  returns FALSE (0000ms, 0750ms total)
T030C 001:331 JLINK_IsHalted()  returns FALSE (0000ms, 0750ms total)
T030C 001:333 JLINK_IsHalted()  returns FALSE (0000ms, 0750ms total)
T030C 001:335 JLINK_IsHalted()  returns FALSE (0001ms, 0751ms total)
T030C 001:338 JLINK_IsHalted()  returns FALSE (0000ms, 0750ms total)
T030C 001:340 JLINK_IsHalted()  returns FALSE (0000ms, 0750ms total)
T030C 001:351 JLINK_IsHalted()  returns FALSE (0001ms, 0751ms total)
T030C 001:354 JLINK_IsHalted()  returns FALSE (0000ms, 0750ms total)
T030C 001:356 JLINK_IsHalted() -- CPU_ReadMem(2 bytes @ 0x20000000)  returns TRUE (0004ms, 0754ms total)
T030C 001:360 JLINK_ReadReg(R15 (PC))  returns 0x20000000 (0000ms, 0750ms total)
T030C 001:360 JLINK_ClrBPEx(BPHandle = 0x0000000A)  returns 0x00 (0000ms, 0750ms total)
T030C 001:360 JLINK_ReadReg(R0)  returns 0x00000000 (0000ms, 0750ms total)
T030C 001:361 JLINK_WriteMem(0x20000164, 0x0400 Bytes, ...) - Data: 00 20 AD F8 04 00 4E F6 60 20 AD F8 06 00 02 20 ... -- CPU_WriteMem(1024 bytes @ 0x20000164)  returns 0x400 (0012ms, 0762ms total)
T030C 001:373 JLINK_WriteReg(R0, 0x08001800)  returns 0x00 (0000ms, 0762ms total)
T030C 001:373 JLINK_WriteReg(R1, 0x00000400)  returns 0x00 (0000ms, 0762ms total)
T030C 001:373 JLINK_WriteReg(R2, 0x20000164)  returns 0x00 (0000ms, 0762ms total)
T030C 001:373 JLINK_WriteReg(R3, 0x00000000)  returns 0x00 (0000ms, 0762ms total)
T030C 001:373 JLINK_WriteReg(R4, 0x00000000)  returns 0x00 (0000ms, 0762ms total)
T030C 001:373 JLINK_WriteReg(R5, 0x00000000)  returns 0x00 (0000ms, 0762ms total)
T030C 001:373 JLINK_WriteReg(R6, 0x00000000)  returns 0x00 (0000ms, 0762ms total)
T030C 001:373 JLINK_WriteReg(R7, 0x00000000)  returns 0x00 (0000ms, 0762ms total)
T030C 001:373 JLINK_WriteReg(R8, 0x00000000)  returns 0x00 (0000ms, 0762ms total)
T030C 001:373 JLINK_WriteReg(R9, 0x20000160)  returns 0x00 (0000ms, 0762ms total)
T030C 001:373 JLINK_WriteReg(R10, 0x00000000)  returns 0x00 (0000ms, 0762ms total)
T030C 001:373 JLINK_WriteReg(R11, 0x00000000)  returns 0x00 (0001ms, 0763ms total)
T030C 001:374 JLINK_WriteReg(R12, 0x00000000)  returns 0x00 (0000ms, 0763ms total)
T030C 001:374 JLINK_WriteReg(R13 (SP), 0x20001000)  returns 0x00 (0000ms, 0763ms total)
T030C 001:374 JLINK_WriteReg(R14, 0x20000001)  returns 0x00 (0000ms, 0763ms total)
T030C 001:374 JLINK_WriteReg(R15 (PC), 0x200000F4)  returns 0x00 (0000ms, 0763ms total)
T030C 001:374 JLINK_WriteReg(XPSR, 0x01000000)  returns 0x00 (0000ms, 0763ms total)
T030C 001:374 JLINK_WriteReg(MSP, 0x20001000)  returns 0x00 (0000ms, 0763ms total)
T030C 001:374 JLINK_WriteReg(PSP, 0x20001000)  returns 0x00 (0000ms, 0763ms total)
T030C 001:374 JLINK_WriteReg(CFBP, 0x00000000)  returns 0x00 (0000ms, 0763ms total)
T030C 001:374 JLINK_SetBPEx(Addr = 0x20000000, Type = 0xFFFFFFF2)  returns 0x0000000B (0000ms, 0763ms total)
T030C 001:374 JLINK_Go() (0003ms, 0766ms total)
T030C 001:377 JLINK_IsHalted()  returns FALSE (0000ms, 0766ms total)
T030C 001:384 JLINK_IsHalted()  returns FALSE (0001ms, 0767ms total)
T030C 001:387 JLINK_IsHalted()  returns FALSE (0000ms, 0766ms total)
T030C 001:389 JLINK_IsHalted()  returns FALSE (0000ms, 0766ms total)
T030C 001:391 JLINK_IsHalted()  returns FALSE (0000ms, 0766ms total)
T030C 001:393 JLINK_IsHalted()  returns FALSE (0000ms, 0766ms total)
T030C 001:395 JLINK_IsHalted()  returns FALSE (0000ms, 0766ms total)
T030C 001:397 JLINK_IsHalted()  returns FALSE (0000ms, 0766ms total)
T030C 001:399 JLINK_IsHalted()  returns FALSE (0000ms, 0766ms total)
T030C 001:401 JLINK_IsHalted()  returns FALSE (0000ms, 0766ms total)
T030C 001:403 JLINK_IsHalted()  returns FALSE (0000ms, 0766ms total)
T030C 001:405 JLINK_IsHalted()  returns FALSE (0000ms, 0766ms total)
T030C 001:407 JLINK_IsHalted() -- CPU_ReadMem(2 bytes @ 0x20000000)  returns TRUE (0003ms, 0769ms total)
T030C 001:410 JLINK_ReadReg(R15 (PC))  returns 0x20000000 (0000ms, 0766ms total)
T030C 001:410 JLINK_ClrBPEx(BPHandle = 0x0000000B)  returns 0x00 (0000ms, 0766ms total)
T030C 001:410 JLINK_ReadReg(R0)  returns 0x00000000 (0000ms, 0766ms total)
T030C 001:412 JLINK_WriteMem(0x20000164, 0x0400 Bytes, ...) - Data: 91 F8 02 C0 4C EA 05 05 91 F8 00 C0 BC F1 00 0F ... -- CPU_WriteMem(1024 bytes @ 0x20000164)  returns 0x400 (0013ms, 0779ms total)
T030C 001:425 JLINK_WriteReg(R0, 0x08001C00)  returns 0x00 (0000ms, 0779ms total)
T030C 001:425 JLINK_WriteReg(R1, 0x00000400)  returns 0x00 (0000ms, 0779ms total)
T030C 001:425 JLINK_WriteReg(R2, 0x20000164)  returns 0x00 (0000ms, 0779ms total)
T030C 001:425 JLINK_WriteReg(R3, 0x00000000)  returns 0x00 (0000ms, 0779ms total)
T030C 001:425 JLINK_WriteReg(R4, 0x00000000)  returns 0x00 (0000ms, 0779ms total)
T030C 001:425 JLINK_WriteReg(R5, 0x00000000)  returns 0x00 (0000ms, 0779ms total)
T030C 001:425 JLINK_WriteReg(R6, 0x00000000)  returns 0x00 (0000ms, 0779ms total)
T030C 001:425 JLINK_WriteReg(R7, 0x00000000)  returns 0x00 (0000ms, 0779ms total)
T030C 001:425 JLINK_WriteReg(R8, 0x00000000)  returns 0x00 (0000ms, 0779ms total)
T030C 001:425 JLINK_WriteReg(R9, 0x20000160)  returns 0x00 (0000ms, 0779ms total)
T030C 001:425 JLINK_WriteReg(R10, 0x00000000)  returns 0x00 (0000ms, 0779ms total)
T030C 001:425 JLINK_WriteReg(R11, 0x00000000)  returns 0x00 (0000ms, 0779ms total)
T030C 001:425 JLINK_WriteReg(R12, 0x00000000)  returns 0x00 (0000ms, 0779ms total)
T030C 001:425 JLINK_WriteReg(R13 (SP), 0x20001000)  returns 0x00 (0001ms, 0780ms total)
T030C 001:426 JLINK_WriteReg(R14, 0x20000001)  returns 0x00 (0000ms, 0780ms total)
T030C 001:426 JLINK_WriteReg(R15 (PC), 0x200000F4)  returns 0x00 (0000ms, 0780ms total)
T030C 001:426 JLINK_WriteReg(XPSR, 0x01000000)  returns 0x00 (0000ms, 0780ms total)
T030C 001:426 JLINK_WriteReg(MSP, 0x20001000)  returns 0x00 (0000ms, 0780ms total)
T030C 001:426 JLINK_WriteReg(PSP, 0x20001000)  returns 0x00 (0000ms, 0780ms total)
T030C 001:426 JLINK_WriteReg(CFBP, 0x00000000)  returns 0x00 (0000ms, 0780ms total)
T030C 001:426 JLINK_SetBPEx(Addr = 0x20000000, Type = 0xFFFFFFF2)  returns 0x0000000C (0000ms, 0780ms total)
T030C 001:426 JLINK_Go() (0002ms, 0782ms total)
T030C 001:428 JLINK_IsHalted()  returns FALSE (0000ms, 0782ms total)
T030C 001:433 JLINK_IsHalted()  returns FALSE (0000ms, 0782ms total)
T030C 001:435 JLINK_IsHalted()  returns FALSE (0000ms, 0782ms total)
T030C 001:437 JLINK_IsHalted()  returns FALSE (0000ms, 0782ms total)
T030C 001:439 JLINK_IsHalted()  returns FALSE (0000ms, 0782ms total)
T030C 001:441 JLINK_IsHalted()  returns FALSE (0001ms, 0783ms total)
T030C 001:444 JLINK_IsHalted()  returns FALSE (0000ms, 0782ms total)
T030C 001:446 JLINK_IsHalted()  returns FALSE (0000ms, 0782ms total)
T030C 001:448 JLINK_IsHalted()  returns FALSE (0000ms, 0782ms total)
T030C 001:450 JLINK_IsHalted()  returns FALSE (0000ms, 0782ms total)
T030C 001:464 JLINK_IsHalted() -- CPU_ReadMem(2 bytes @ 0x20000000)  returns TRUE (0004ms, 0786ms total)
T030C 001:468 JLINK_ReadReg(R15 (PC))  returns 0x20000000 (0000ms, 0782ms total)
T030C 001:468 JLINK_ClrBPEx(BPHandle = 0x0000000C)  returns 0x00 (0000ms, 0782ms total)
T030C 001:468 JLINK_ReadReg(R0)  returns 0x00000000 (0000ms, 0782ms total)
T030C 001:469 JLINK_WriteMem(0x20000164, 0x0400 Bytes, ...) - Data: 04 E0 01 21 6B 4A 20 32 11 70 05 E0 05 21 69 4A ... -- CPU_WriteMem(1024 bytes @ 0x20000164)  returns 0x400 (0012ms, 0794ms total)
T030C 001:481 JLINK_WriteReg(R0, 0x08002000)  returns 0x00 (0000ms, 0794ms total)
T030C 001:481 JLINK_WriteReg(R1, 0x00000400)  returns 0x00 (0000ms, 0794ms total)
T030C 001:481 JLINK_WriteReg(R2, 0x20000164)  returns 0x00 (0000ms, 0794ms total)
T030C 001:481 JLINK_WriteReg(R3, 0x00000000)  returns 0x00 (0000ms, 0794ms total)
T030C 001:481 JLINK_WriteReg(R4, 0x00000000)  returns 0x00 (0000ms, 0794ms total)
T030C 001:481 JLINK_WriteReg(R5, 0x00000000)  returns 0x00 (0000ms, 0794ms total)
T030C 001:481 JLINK_WriteReg(R6, 0x00000000)  returns 0x00 (0000ms, 0794ms total)
T030C 001:481 JLINK_WriteReg(R7, 0x00000000)  returns 0x00 (0000ms, 0794ms total)
T030C 001:481 JLINK_WriteReg(R8, 0x00000000)  returns 0x00 (0000ms, 0794ms total)
T030C 001:481 JLINK_WriteReg(R9, 0x20000160)  returns 0x00 (0000ms, 0794ms total)
T030C 001:481 JLINK_WriteReg(R10, 0x00000000)  returns 0x00 (0000ms, 0794ms total)
T030C 001:481 JLINK_WriteReg(R11, 0x00000000)  returns 0x00 (0000ms, 0794ms total)
T030C 001:481 JLINK_WriteReg(R12, 0x00000000)  returns 0x00 (0001ms, 0795ms total)
T030C 001:482 JLINK_WriteReg(R13 (SP), 0x20001000)  returns 0x00 (0000ms, 0795ms total)
T030C 001:482 JLINK_WriteReg(R14, 0x20000001)  returns 0x00 (0000ms, 0795ms total)
T030C 001:482 JLINK_WriteReg(R15 (PC), 0x200000F4)  returns 0x00 (0000ms, 0795ms total)
T030C 001:482 JLINK_WriteReg(XPSR, 0x01000000)  returns 0x00 (0000ms, 0795ms total)
T030C 001:482 JLINK_WriteReg(MSP, 0x20001000)  returns 0x00 (0000ms, 0795ms total)
T030C 001:482 JLINK_WriteReg(PSP, 0x20001000)  returns 0x00 (0000ms, 0795ms total)
T030C 001:482 JLINK_WriteReg(CFBP, 0x00000000)  returns 0x00 (0000ms, 0795ms total)
T030C 001:482 JLINK_SetBPEx(Addr = 0x20000000, Type = 0xFFFFFFF2)  returns 0x0000000D (0000ms, 0795ms total)
T030C 001:482 JLINK_Go() (0002ms, 0797ms total)
T030C 001:484 JLINK_IsHalted()  returns FALSE (0001ms, 0798ms total)
T030C 001:493 JLINK_IsHalted()  returns FALSE (0000ms, 0797ms total)
T030C 001:495 JLINK_IsHalted()  returns FALSE (0001ms, 0798ms total)
T030C 001:498 JLINK_IsHalted()  returns FALSE (0000ms, 0797ms total)
T030C 001:500 JLINK_IsHalted()  returns FALSE (0000ms, 0797ms total)
T030C 001:502 JLINK_IsHalted()  returns FALSE (0001ms, 0798ms total)
T030C 001:505 JLINK_IsHalted()  returns FALSE (0000ms, 0797ms total)
T030C 001:507 JLINK_IsHalted()  returns FALSE (0001ms, 0798ms total)
T030C 001:510 JLINK_IsHalted()  returns FALSE (0000ms, 0797ms total)
T030C 001:512 JLINK_IsHalted()  returns FALSE (0000ms, 0797ms total)
T030C 001:514 JLINK_IsHalted()  returns FALSE (0000ms, 0797ms total)
T030C 001:519 JLINK_IsHalted() -- CPU_ReadMem(2 bytes @ 0x20000000)  returns TRUE (0003ms, 0800ms total)
T030C 001:522 JLINK_ReadReg(R15 (PC))  returns 0x20000000 (0000ms, 0797ms total)
T030C 001:522 JLINK_ClrBPEx(BPHandle = 0x0000000D)  returns 0x00 (0000ms, 0797ms total)
T030C 001:522 JLINK_ReadReg(R0)  returns 0x00000000 (0000ms, 0797ms total)
T030C 001:523 JLINK_WriteMem(0x20000164, 0x0400 Bytes, ...) - Data: 4D 89 2A 43 4F F6 FB 75 2A 40 8D 88 2A 43 47 F6 ... -- CPU_WriteMem(1024 bytes @ 0x20000164)  returns 0x400 (0013ms, 0810ms total)
T030C 001:536 JLINK_WriteReg(R0, 0x08002400)  returns 0x00 (0000ms, 0810ms total)
T030C 001:536 JLINK_WriteReg(R1, 0x00000400)  returns 0x00 (0000ms, 0810ms total)
T030C 001:536 JLINK_WriteReg(R2, 0x20000164)  returns 0x00 (0000ms, 0810ms total)
T030C 001:536 JLINK_WriteReg(R3, 0x00000000)  returns 0x00 (0000ms, 0810ms total)
T030C 001:537 JLINK_WriteReg(R4, 0x00000000)  returns 0x00 (0000ms, 0811ms total)
T030C 001:537 JLINK_WriteReg(R5, 0x00000000)  returns 0x00 (0000ms, 0811ms total)
T030C 001:537 JLINK_WriteReg(R6, 0x00000000)  returns 0x00 (0000ms, 0811ms total)
T030C 001:537 JLINK_WriteReg(R7, 0x00000000)  returns 0x00 (0000ms, 0811ms total)
T030C 001:537 JLINK_WriteReg(R8, 0x00000000)  returns 0x00 (0000ms, 0811ms total)
T030C 001:537 JLINK_WriteReg(R9, 0x20000160)  returns 0x00 (0000ms, 0811ms total)
T030C 001:537 JLINK_WriteReg(R10, 0x00000000)  returns 0x00 (0000ms, 0811ms total)
T030C 001:537 JLINK_WriteReg(R11, 0x00000000)  returns 0x00 (0000ms, 0811ms total)
T030C 001:537 JLINK_WriteReg(R12, 0x00000000)  returns 0x00 (0000ms, 0811ms total)
T030C 001:537 JLINK_WriteReg(R13 (SP), 0x20001000)  returns 0x00 (0000ms, 0811ms total)
T030C 001:537 JLINK_WriteReg(R14, 0x20000001)  returns 0x00 (0000ms, 0811ms total)
T030C 001:537 JLINK_WriteReg(R15 (PC), 0x200000F4)  returns 0x00 (0000ms, 0811ms total)
T030C 001:537 JLINK_WriteReg(XPSR, 0x01000000)  returns 0x00 (0000ms, 0811ms total)
T030C 001:537 JLINK_WriteReg(MSP, 0x20001000)  returns 0x00 (0000ms, 0811ms total)
T030C 001:537 JLINK_WriteReg(PSP, 0x20001000)  returns 0x00 (0000ms, 0811ms total)
T030C 001:538 JLINK_WriteReg(CFBP, 0x00000000)  returns 0x00 (0000ms, 0812ms total)
T030C 001:538 JLINK_SetBPEx(Addr = 0x20000000, Type = 0xFFFFFFF2)  returns 0x0000000E (0000ms, 0812ms total)
T030C 001:538 JLINK_Go() (0002ms, 0814ms total)
T030C 001:540 JLINK_IsHalted()  returns FALSE (0000ms, 0814ms total)
T030C 001:544 JLINK_IsHalted()  returns FALSE (0000ms, 0814ms total)
T030C 001:546 JLINK_IsHalted()  returns FALSE (0000ms, 0814ms total)
T030C 001:548 JLINK_IsHalted()  returns FALSE (0001ms, 0815ms total)
T030C 001:551 JLINK_IsHalted()  returns FALSE (0000ms, 0814ms total)
T030C 001:553 JLINK_IsHalted()  returns FALSE (0000ms, 0814ms total)
T030C 001:555 JLINK_IsHalted()  returns FALSE (0000ms, 0814ms total)
T030C 001:557 JLINK_IsHalted()  returns FALSE (0000ms, 0814ms total)
T030C 001:559 JLINK_IsHalted()  returns FALSE (0000ms, 0814ms total)
T030C 001:561 JLINK_IsHalted()  returns FALSE (0000ms, 0814ms total)
T030C 001:563 JLINK_IsHalted()  returns FALSE (0000ms, 0814ms total)
T030C 001:579 JLINK_IsHalted() -- CPU_ReadMem(2 bytes @ 0x20000000)  returns TRUE (0004ms, 0818ms total)
T030C 001:583 JLINK_ReadReg(R15 (PC))  returns 0x20000000 (0000ms, 0814ms total)
T030C 001:583 JLINK_ClrBPEx(BPHandle = 0x0000000E)  returns 0x00 (0000ms, 0814ms total)
T030C 001:583 JLINK_ReadReg(R0)  returns 0x00000000 (0000ms, 0814ms total)
T030C 001:584 JLINK_WriteMem(0x20000164, 0x0400 Bytes, ...) - Data: 23 89 A2 88 61 88 28 46 FF F7 4E FF E1 88 28 46 ... -- CPU_WriteMem(1024 bytes @ 0x20000164)  returns 0x400 (0012ms, 0826ms total)
T030C 001:596 JLINK_WriteReg(R0, 0x08002800)  returns 0x00 (0001ms, 0827ms total)
T030C 001:597 JLINK_WriteReg(R1, 0x00000400)  returns 0x00 (0000ms, 0827ms total)
T030C 001:597 JLINK_WriteReg(R2, 0x20000164)  returns 0x00 (0000ms, 0827ms total)
T030C 001:597 JLINK_WriteReg(R3, 0x00000000)  returns 0x00 (0000ms, 0827ms total)
T030C 001:597 JLINK_WriteReg(R4, 0x00000000)  returns 0x00 (0000ms, 0827ms total)
T030C 001:597 JLINK_WriteReg(R5, 0x00000000)  returns 0x00 (0000ms, 0827ms total)
T030C 001:597 JLINK_WriteReg(R6, 0x00000000)  returns 0x00 (0000ms, 0827ms total)
T030C 001:597 JLINK_WriteReg(R7, 0x00000000)  returns 0x00 (0000ms, 0827ms total)
T030C 001:597 JLINK_WriteReg(R8, 0x00000000)  returns 0x00 (0000ms, 0827ms total)
T030C 001:597 JLINK_WriteReg(R9, 0x20000160)  returns 0x00 (0000ms, 0827ms total)
T030C 001:597 JLINK_WriteReg(R10, 0x00000000)  returns 0x00 (0000ms, 0827ms total)
T030C 001:597 JLINK_WriteReg(R11, 0x00000000)  returns 0x00 (0000ms, 0827ms total)
T030C 001:597 JLINK_WriteReg(R12, 0x00000000)  returns 0x00 (0000ms, 0827ms total)
T030C 001:597 JLINK_WriteReg(R13 (SP), 0x20001000)  returns 0x00 (0000ms, 0827ms total)
T030C 001:597 JLINK_WriteReg(R14, 0x20000001)  returns 0x00 (0000ms, 0827ms total)
T030C 001:597 JLINK_WriteReg(R15 (PC), 0x200000F4)  returns 0x00 (0001ms, 0828ms total)
T030C 001:598 JLINK_WriteReg(XPSR, 0x01000000)  returns 0x00 (0000ms, 0828ms total)
T030C 001:598 JLINK_WriteReg(MSP, 0x20001000)  returns 0x00 (0000ms, 0828ms total)
T030C 001:598 JLINK_WriteReg(PSP, 0x20001000)  returns 0x00 (0000ms, 0828ms total)
T030C 001:598 JLINK_WriteReg(CFBP, 0x00000000)  returns 0x00 (0000ms, 0828ms total)
T030C 001:598 JLINK_SetBPEx(Addr = 0x20000000, Type = 0xFFFFFFF2)  returns 0x0000000F (0000ms, 0828ms total)
T030C 001:598 JLINK_Go() (0002ms, 0830ms total)
T030C 001:600 JLINK_IsHalted()  returns FALSE (0000ms, 0830ms total)
T030C 001:611 JLINK_IsHalted()  returns FALSE (0001ms, 0831ms total)
T030C 001:614 JLINK_IsHalted()  returns FALSE (0001ms, 0831ms total)
T030C 001:617 JLINK_IsHalted()  returns FALSE (0000ms, 0830ms total)
